!Agilent Technologies,E8362C,MY49020356,A.09.42.23
!Agilent E8362C: A.09.42.23
!Date: Saturday, September 11, 2021 04:16:11
!Correction: S11(Full 2 Port(1,2)) 
!S21(Full 2 Port(1,2)) 
!S12(Full 2 Port(1,2)) 
!S22(Full 2 Port(1,2)) 
!S2P File: Measurements: S11, S21, S12, S22:
# Hz S  MA   R 50
10950000000 0.74965447 -166.38557 1.8760875e-005 58.91571 2.6291598e-005 -31.245991 1.0521692 -36.781563
10950034375 0.75087458 -166.41307 1.8656898e-005 90.983665 1.5506361e-006 -142.72493 1.0513554 -36.748863
10950068750 0.75000423 -166.41154 3.6543348e-005 -121.00239 2.1925991e-005 -60.887646 1.0512079 -36.74049
10950103125 0.75002855 -166.42642 1.896779e-005 -172.31935 1.2844287e-005 -117.76297 1.0523971 -36.752674
10950137500 0.75001824 -166.39752 2.9607079e-005 -157.73926 7.0293058e-006 133.74098 1.0529058 -36.665581
10950171875 0.74974817 -166.52223 1.7779228e-005 -64.574913 1.6522179e-005 -23.027924 1.0530852 -36.748466
10950206250 0.75010014 -166.52695 2.7386341e-005 111.49077 2.7993243e-005 -71.852234 1.0520016 -36.66925
10950240625 0.75048745 -166.52328 0 90 8.3089544e-006 -179.888 1.0518347 -36.745335
10950275000 0.75128311 -166.53815 3.2294523e-005 -18.383905 1.0503959e-005 76.651169 1.0526415 -36.727257
10950309375 0.75067914 -166.52087 3.8837112e-005 -144.55904 4.0813815e-005 -34.49036 1.0517323 -36.66095
10950343750 0.75073671 -166.3519 4.522482e-005 39.003826 2.7483782e-005 -5.9774041 1.0508236 -36.658405
10950378125 0.75025481 -166.45699 3.1533891e-005 -69.16494 2.2231985e-005 91.413261 1.0515118 -36.710075
10950412500 0.7487759 -166.46121 4.3516502e-005 41.106915 3.5443125e-005 39.823479 1.0528659 -36.686047
10950446875 0.74898767 -166.42677 3.4372621e-005 -61.298401 1.3640401e-005 97.093712 1.0531536 -36.692776
10950481250 0.74915016 -166.45808 4.9257022e-005 -6.8144403 1.804919e-005 24.310162 1.0516596 -36.756443
10950515625 0.74904239 -166.47523 2.1952388e-005 -56.688961 1.1934009e-005 139.42677 1.0517869 -36.738426
10950550000 0.75086278 -166.53235 2.5313158e-005 46.298347 1.5687046e-005 -45.997353 1.0519582 -36.725994
10950584375 0.74978548 -166.46695 2.81597e-005 -17.931305 2.1743979e-005 -72.740768 1.0516757 -36.722214
10950618750 0.74917704 -166.51102 2.3663084e-005 -71.685181 1.7669769e-005 -96.550987 1.0521266 -36.760071
10950653125 0.74837303 -166.44873 2.3719072e-005 84.504539 1.8284463e-005 18.451548 1.0522093 -36.777943
10950687500 0.74858898 -166.46609 4.1272968e-005 -122.66427 2.1588228e-005 -93.570816 1.052896 -36.752522
10950721875 0.75036794 -166.35605 1.6103304e-005 -172.18202 1.6860296e-005 25.181828 1.0525886 -36.731216
10950756250 0.75009632 -166.41826 7.0724918e-006 93.975212 2.2766484e-005 69.697235 1.0513283 -36.702213
10950790625 0.75024229 -166.40442 1.8506422e-005 -87.693192 1.7477156e-005 12.113461 1.051747 -36.724255
10950825000 0.74951839 -166.49754 2.9867691e-005 83.604027 1.4185235e-005 -57.456535 1.0527 -36.753979
10950859375 0.74951088 -166.50903 1.6856788e-005 -174.14957 1.4197428e-005 -116.6443 1.0531482 -36.759735
10950893750 0.75049984 -166.45558 2.7733702e-006 105.44815 4.5608626e-006 -20.01466 1.0521021 -36.731655
10950928125 0.75045502 -166.49689 1.5301306e-005 20.699673 2.6734839e-005 -71.62793 1.0524288 -36.739674
10950962500 0.75038147 -166.49336 1.7519802e-005 -2.8812675 3.4763561e-005 -28.401072 1.0533489 -36.769215
10950996875 0.75049347 -166.43152 2.9385358e-006 150.72997 4.0210056e-005 99.289078 1.0536685 -36.735687
10951031250 0.74943751 -166.48672 6.887169e-005 95.283752 1.615246e-005 -21.825499 1.0535032 -36.791134
10951065625 0.75001341 -166.54935 1.3833093e-005 -37.383263 2.1530692e-005 162.45923 1.0532939 -36.763657
10951100000 0.74989754 -166.41772 3.2027416e-005 8.4893456 2.7359396e-005 -74.215569 1.0526667 -36.771557
10951134375 0.74949026 -166.51315 3.498391e-005 0.93688971 2.3385184e-005 0.034666251 1.0521109 -36.743217
10951168750 0.75112641 -166.52994 5.3677777e-005 50.405598 3.433022e-005 -4.3866973 1.0514779 -36.698509
10951203125 0.75020373 -166.53342 1.2233349e-005 122.43279 1.5563517e-005 80.693573 1.0531112 -36.711288
10951237500 0.74978727 -166.564 1.0376501e-005 109.86292 8.8689803e-006 84.940399 1.0525101 -36.680664
10951271875 0.74946111 -166.55103 5.4639535e-005 5.9465857 1.5414918e-005 47.229309 1.0517862 -36.733887
10951306250 0.7499209 -166.46751 3.7502268e-005 52.363647 5.4640477e-006 -70.952843 1.0514492 -36.708721
10951340625 0.7501632 -166.54094 2.5631041e-005 70.080437 3.1085463e-005 -166.24725 1.0519637 -36.770943
10951375000 0.75057948 -166.53151 4.0178005e-005 75.366493 8.2699444e-006 14.685998 1.0531352 -36.790497
10951409375 0.74932176 -166.55174 3.7831633e-005 -46.571373 3.7335856e-005 23.549807 1.0531594 -36.769123
10951443750 0.75056839 -166.55756 4.7674144e-005 102.3666 2.7631222e-005 10.345717 1.0533775 -36.781521
10951478125 0.74942213 -166.55333 2.4056135e-005 -14.397669 1.8883347e-005 -4.7812772 1.0518477 -36.74514
10951512500 0.75022691 -166.56812 5.2863204e-005 -131.16676 2.9354575e-005 -147.38252 1.0522872 -36.770222
10951546875 0.75049937 -166.70515 3.569297e-005 50.445854 2.6685635e-005 -71.05835 1.0524799 -36.743221
10951581250 0.75058329 -166.59119 1.7395898e-005 178.23029 2.9943461e-005 -46.452904 1.0519677 -36.760361
10951615625 0.75045681 -166.56866 1.7603033e-005 -111.94065 2.2194934e-005 -21.859095 1.0522391 -36.713715
10951650000 0.75175405 -166.69043 2.2479566e-005 56.76347 3.0538627e-005 -174.78354 1.0536804 -36.720451
10951684375 0.75073475 -166.65633 2.7861213e-005 1.0358434 1.9015197e-005 135.61778 1.053827 -36.69413
10951718750 0.75013185 -166.58867 2.3094946e-005 -5.7824712 1.1989935e-005 113.66698 1.0540565 -36.681686
10951753125 0.75033307 -166.62756 3.2194032e-005 0.91781884 3.5194059e-006 -75.64814 1.0516912 -36.72617
10951787500 0.74951619 -166.61011 5.9092221e-005 -37.396751 1.002854e-005 176.05417 1.0526981 -36.674423
10951821875 0.74958509 -166.52643 2.9160357e-005 -121.61722 2.9202458e-005 -38.777073 1.0513705 -36.69965
10951856250 0.75098455 -166.6055 3.499927e-005 -31.049883 2.354127e-005 -9.2415991 1.0516167 -36.697533
10951890625 0.75037187 -166.60287 2.3349927e-005 -23.010324 2.9002002e-005 -28.838268 1.0514615 -36.714329
10951925000 0.75013798 -166.6178 4.5205332e-005 -63.133739 2.1391757e-005 -23.549726 1.0520083 -36.734512
10951959375 0.75023168 -166.53322 2.2125883e-005 -132.70085 2.1498819e-005 -28.044596 1.0516614 -36.687462
10951993750 0.75043291 -166.73996 4.5279099e-005 -17.739985 1.9234776e-005 51.020901 1.0517985 -36.680645
10952028125 0.74953949 -166.75386 3.9715935e-005 -24.813477 2.0802552e-005 62.776249 1.0514885 -36.709843
10952062500 0.7509554 -166.69099 2.0431302e-005 -112.02086 1.6837019e-005 -89.538963 1.0512836 -36.644844
10952096875 0.75087774 -166.73787 3.1719406e-005 50.237072 3.0759213e-005 -36.329147 1.0511203 -36.709358
10952131250 0.74932843 -166.68901 4.4993059e-005 47.678577 9.5226114e-006 131.79706 1.0528378 -36.767529
10952165625 0.74952686 -166.74992 2.8727172e-005 -97.685669 3.2631102e-005 -27.449778 1.0528094 -36.795567
10952200000 0.74925023 -166.74667 4.0629147e-005 -88.886284 4.6277532e-006 -78.973938 1.0530958 -36.757484
10952234375 0.7484163 -166.72177 1.4047855e-005 -43.079346 2.4902991e-005 -57.106544 1.0520991 -36.721107
10952268750 0.74892491 -166.65631 3.0818301e-005 -47.217499 1.9877505e-005 103.49241 1.0516814 -36.709217
10952303125 0.74870539 -166.63959 1.3107375e-005 -44.106632 2.8374065e-005 -111.22871 1.050711 -36.671993
10952337500 0.75038731 -166.67369 4.8286474e-006 9.8862925 1.0170125e-005 -98.969673 1.052677 -36.650211
10952371875 0.74958301 -166.71185 6.3418047e-005 -92.684952 2.8270275e-005 -9.533659 1.0522474 -36.744114
10952406250 0.74932647 -166.75732 4.5473418e-005 -63.276245 4.4948698e-005 -79.518814 1.0521996 -36.689152
10952440625 0.74952281 -166.7673 4.7604692e-005 41.821857 2.9213501e-005 -25.116352 1.052322 -36.74276
10952475000 0.74986464 -166.76118 4.1628948e-005 -40.150597 2.6331603e-005 -58.760643 1.0520324 -36.769875
10952509375 0.74951655 -166.74606 4.3130982e-005 2.7392707 1.6876522e-005 -122.35041 1.0523698 -36.760197
10952543750 0.75024593 -166.67535 1.363261e-005 -18.422228 1.466203e-005 -124.75574 1.0526836 -36.74501
10952578125 0.74973553 -166.6507 4.2237978e-005 93.550301 1.8167058e-005 -114.04935 1.0526552 -36.751129
10952612500 0.74947625 -166.67485 1.5008281e-005 -66.257324 8.7898825e-006 -41.963696 1.0526721 -36.739494
10952646875 0.75021356 -166.71486 4.3010714e-006 -89.877716 2.1162883e-005 23.273596 1.0528516 -36.666801
10952681250 0.74960846 -166.69508 5.2585674e-005 32.803738 3.1500796e-005 -49.188091 1.0530791 -36.695801
10952715625 0.74956822 -166.60786 1.5650499e-005 21.247044 9.8339597e-006 11.389231 1.0523599 -36.695518
10952750000 0.74923277 -166.75436 5.2870531e-005 -7.2757463 1.8921093e-005 -55.349186 1.0514691 -36.73679
10952784375 0.74888724 -166.69492 1.0863256e-005 18.83844 2.2336544e-005 -136.68681 1.0528113 -36.685719
10952818750 0.74975502 -166.71158 1.6523685e-005 -80.578499 1.6752785e-005 -43.887989 1.0512021 -36.698822
10952853125 0.74911016 -166.65977 2.8747281e-005 -79.138382 2.438802e-005 32.064342 1.0517334 -36.75576
10952887500 0.74958175 -166.735 2.8461971e-005 -96.290764 1.6259288e-005 -35.203873 1.0516409 -36.754486
10952921875 0.75049335 -166.8454 1.0836606e-005 108.94189 1.946446e-005 -11.375119 1.0515845 -36.713005
10952956250 0.75049013 -166.75725 1.926955e-005 -31.536766 2.8757626e-005 -43.149727 1.0512512 -36.681744
10952990625 0.75051278 -166.79498 1.7684955e-005 -156.49461 3.1942716e-005 -43.35397 1.0499798 -36.684566
10953025000 0.74914646 -166.84988 3.8543152e-005 37.552761 2.1978831e-005 10.74736 1.0524375 -36.707108
10953059375 0.75039917 -166.81425 2.2368831e-005 -68.9067 1.1522953e-005 77.567924 1.0506386 -36.732975
10953093750 0.75052124 -166.7601 2.9355371e-005 45.373035 1.1528758e-005 10.299679 1.0504811 -36.714794
10953128125 0.74976248 -166.85722 5.5638546e-005 80.317719 2.5328902e-006 -117.53148 1.0521227 -36.735729
10953162500 0.75094575 -166.79327 9.5605601e-006 11.358409 2.7411666e-005 17.105476 1.0524107 -36.687733
10953196875 0.75063586 -166.80467 1.6362139e-005 -18.806293 5.3501226e-006 -122.81319 1.0526534 -36.628498
10953231250 0.74954575 -166.81122 1.9191941e-005 -109.77005 2.2298278e-005 -105.51045 1.0526478 -36.737648
10953265625 0.7492407 -166.74454 2.9134208e-005 122.96888 1.9275793e-005 -0.63915044 1.0513191 -36.676723
10953300000 0.74925965 -166.78748 2.6987862e-005 72.805573 1.4735571e-005 -90.603035 1.0520072 -36.68462
10953334375 0.74983674 -166.74669 6.2294959e-005 24.740582 3.0839747e-005 -17.587654 1.0526453 -36.728134
10953368750 0.74884611 -166.81157 3.3231783e-005 -142.57547 2.1094605e-005 -24.34688 1.0534317 -36.774113
10953403125 0.74926984 -166.84225 9.5300211e-006 28.037323 2.3296709e-005 -102.97935 1.0534281 -36.695518
10953437500 0.74957138 -166.77905 3.0551462e-005 68.542694 5.9314534e-006 -17.001093 1.052718 -36.705273
10953471875 0.74963099 -166.76207 5.165135e-005 59.85545 2.931581e-005 -35.70742 1.0517519 -36.675751
10953506250 0.74948877 -166.83464 6.3405067e-005 -73.582657 2.8853245e-005 -10.344116 1.051266 -36.720158
10953540625 0.74921072 -166.8428 5.5206525e-005 67.110313 2.2879241e-005 -23.375391 1.0508326 -36.718525
10953575000 0.74944729 -166.83275 8.5678685e-006 65.130798 2.5409616e-005 51.420841 1.0508232 -36.71553
10953609375 0.74872553 -166.81454 1.3330555e-005 61.143471 2.425128e-005 16.62808 1.0512257 -36.642841
10953643750 0.74906003 -166.98192 5.9670616e-005 -145.4221 5.0797544e-006 26.88393 1.0512846 -36.668404
10953678125 0.74789637 -166.99103 1.2333438e-005 155.11241 2.4802033e-005 -36.26704 1.0517459 -36.762112
10953712500 0.74965006 -166.80452 6.010451e-005 -75.247269 3.5625719e-005 -7.0676346 1.0533272 -36.740849
10953746875 0.74992949 -166.96019 5.5760353e-005 21.036928 3.9215676e-005 -7.8543992 1.0533962 -36.646492
10953781250 0.75001889 -166.84679 1.2337195e-005 -1.758715 1.6419957e-005 -110.07739 1.0525728 -36.750355
10953815625 0.7495746 -166.92807 2.8676837e-005 -122.03485 3.9388298e-005 10.464399 1.0523626 -36.752083
10953850000 0.75047052 -166.85762 3.7961559e-005 62.907955 2.8527904e-005 -52.591526 1.0524122 -36.748306
10953884375 0.74997514 -166.84891 1.8950595e-006 155.6927 1.7159558e-005 16.05909 1.0527823 -36.730721
10953918750 0.74965352 -166.8647 7.9714686e-005 1.2287461 4.8381162e-006 -134.18008 1.0523093 -36.699924
10953953125 0.75006521 -166.94331 2.5517264e-005 23.938747 4.5646552e-006 90.926201 1.0528741 -36.67168
10953987500 0.75007248 -166.86757 3.3283035e-005 -38.919548 1.6329155e-005 -11.157158 1.0513279 -36.711906
10954021875 0.75043631 -166.86511 5.0333027e-005 -88.354156 1.8484268e-005 -97.866356 1.0513666 -36.719162
10954056250 0.74857157 -166.84427 3.0740463e-005 76.708435 1.0306065e-005 71.674141 1.0518117 -36.719608
10954090625 0.74884278 -166.92429 2.8422519e-005 -39.366673 1.3039709e-005 -141.02489 1.0521326 -36.734695
10954125000 0.74919361 -166.96179 7.3676121e-005 126.98822 7.0742253e-006 -164.69394 1.0522585 -36.685741
10954159375 0.74974918 -166.95894 7.5598191e-006 -23.776617 2.386425e-005 -119.01077 1.0519093 -36.753468
10954193750 0.74938709 -166.96431 1.3511845e-005 -11.62679 1.5075221e-005 -79.992912 1.0518013 -36.716213
10954228125 0.75014573 -166.96237 6.3203406e-005 -104.18992 5.6411395e-006 -22.480312 1.0510187 -36.695469
10954262500 0.75083631 -166.99416 1.7946326e-005 -95.164497 1.6406619e-005 -63.727505 1.0520508 -36.722027
10954296875 0.75001645 -166.98387 9.2994514e-006 132.48495 1.7784407e-005 -13.26906 1.0514379 -36.700527
10954331250 0.75035602 -167.0294 7.7828327e-006 142.40118 2.593411e-005 -123.46821 1.0533813 -36.71843
10954365625 0.74911672 -166.97055 2.8374083e-005 72.200294 1.9803192e-005 -66.126259 1.0523022 -36.671185
10954400000 0.74976861 -166.97301 2.1490558e-005 -75.552971 3.1833915e-005 32.066074 1.0512089 -36.67487
10954434375 0.75027448 -166.99161 3.0230736e-005 63.057747 2.9051349e-005 10.856989 1.0522448 -36.738548
10954468750 0.74995786 -166.96321 5.1721861e-005 -80.174194 2.311314e-005 -132.05794 1.0510213 -36.755249
10954503125 0.75029969 -166.91173 2.2899794e-005 -32.570866 2.8852284e-005 -70.778908 1.0525821 -36.792809
10954537500 0.74968845 -166.91704 3.0798627e-005 -171.75305 3.6019057e-005 -125.15405 1.0519301 -36.686981
10954571875 0.74916291 -166.89442 2.1995918e-005 87.014748 3.4462904e-005 -85.970474 1.0523072 -36.706532
10954606250 0.75035375 -166.97456 6.4026572e-005 -21.322178 1.6464213e-005 -9.9200296 1.0533836 -36.776913
10954640625 0.749915 -166.94348 3.1912612e-005 112.03929 1.6022663e-005 71.244904 1.0526348 -36.737026
10954675000 0.74981081 -166.92972 5.7334422e-005 12.230484 7.714717e-006 155.743 1.0515604 -36.769032
10954709375 0.7500183 -166.98805 6.0186544e-006 118.46026 1.9891919e-005 -77.603508 1.0525978 -36.710705
10954743750 0.74970931 -166.95694 3.0490322e-005 33.457935 2.3677308e-005 -31.718996 1.0535592 -36.740791
10954778125 0.74982136 -166.95215 1.8226592e-005 -10.814866 1.6293503e-006 -42.493481 1.0528255 -36.791965
10954812500 0.74837792 -166.98564 4.2112388e-005 -170.3362 1.6290564e-005 -42.274563 1.0517284 -36.705353
10954846875 0.74972522 -166.97878 2.1160016e-005 -125.29818 3.4675933e-005 -108.65184 1.0523335 -36.742462
10954881250 0.74929321 -167.06604 2.1057311e-005 -144.79141 1.3045406e-005 -132.08044 1.051915 -36.722363
10954915625 0.74850935 -167.03867 2.1023576e-005 9.792984 5.1647698e-006 -113.71328 1.0531754 -36.778961
10954950000 0.74831194 -167.06084 4.693574e-005 -88.923286 4.2058182e-005 -49.839527 1.0539806 -36.731636
10954984375 0.74850899 -167.06812 2.6011397e-005 -149.99597 9.0173125e-006 53.3195 1.0521312 -36.665817
10955018750 0.7496317 -167.05334 4.6007171e-005 63.063 7.593615e-006 -95.630234 1.0520836 -36.770851
10955053125 0.74909294 -167.08588 1.6923894e-005 164.12164 6.2558693e-006 -30.432823 1.0529302 -36.7369
10955087500 0.74911618 -167.04085 4.8225378e-005 -156.29881 3.1264171e-005 -53.086124 1.0517514 -36.773571
10955121875 0.74852931 -167.08905 1.3108569e-005 71.999908 3.0629086e-005 14.255373 1.0524642 -36.747768
10955156250 0.74865931 -166.99368 5.1650357e-005 -34.519756 2.6680396e-005 -152.26123 1.0522823 -36.751705
10955190625 0.74843788 -166.96252 4.6176126e-005 -155.30014 1.4324727e-005 -10.695318 1.0522279 -36.833424
10955225000 0.74836653 -167.0589 5.8941368e-006 -93.45594 1.2791805e-005 8.7090597 1.0509124 -36.790295
10955259375 0.74996144 -167.01363 2.4558622e-005 -13.156898 2.3884519e-005 -19.251472 1.0519831 -36.748142
10955293750 0.7510199 -167.03157 1.8045776e-005 -0.4968704 1.5533024e-005 -22.837654 1.0525002 -36.766106
10955328125 0.74946725 -167.09668 1.3447611e-005 101.99942 4.0527972e-005 13.693204 1.051731 -36.71077
10955362500 0.74868226 -167.06747 2.0321351e-005 -95.753296 1.9597084e-005 -15.102939 1.0513988 -36.771599
10955396875 0.74905938 -167.10953 1.9158375e-005 39.311699 2.7882521e-005 -41.010937 1.0517012 -36.717453
10955431250 0.74903727 -167.06166 6.709407e-006 -167.86758 3.248221e-005 -173.98766 1.0509727 -36.758987
10955465625 0.74930745 -167.03053 3.0955609e-005 137.31393 3.1787207e-005 -10.551827 1.0505325 -36.643208
10955500000 0.74946058 -167.02554 7.4433337e-005 -52.942406 1.1925545e-005 51.075722 1.0525033 -36.73069
10955534375 0.74979377 -167.04401 4.4227945e-005 -43.557877 1.8495963e-005 -39.44743 1.0517257 -36.74403
10955568750 0.74921876 -167.13564 1.2082195e-005 1.3301773 2.6000096e-006 -22.276217 1.0516784 -36.807472
10955603125 0.75007278 -167.04495 6.7174013e-005 27.165649 2.7635857e-005 169.71027 1.0518589 -36.762127
10955637500 0.74893016 -167.09793 3.0212615e-005 26.358501 1.8055933e-005 -28.761114 1.0518706 -36.734844
10955671875 0.75057405 -167.08333 2.9928442e-005 105.03106 3.5349167e-005 31.885773 1.0524006 -36.831577
10955706250 0.74935156 -167.037 1.1329787e-005 124.01207 1.6470984e-005 49.546227 1.0537323 -36.752754
10955740625 0.74916565 -167.05838 2.838257e-005 30.716906 1.6088992e-005 17.29047 1.052451 -36.691925
10955775000 0.74733442 -167.04582 1.7452792e-005 -142.89905 1.9949244e-005 11.46073 1.052686 -36.745472
10955809375 0.74834085 -167.10696 2.4027107e-005 -48.265915 3.7829053e-005 -51.494305 1.0517634 -36.690388
10955843750 0.74945462 -167.21196 4.5128123e-005 -1.597199 4.1782645e-005 -134.04305 1.0523301 -36.73563
10955878125 0.74832886 -167.18544 9.2475266e-006 -147.67415 3.5545884e-006 -94.392746 1.0522795 -36.725437
10955912500 0.74859667 -167.14209 9.4312963e-006 -31.954197 1.6860828e-005 38.748413 1.0524622 -36.728619
10955946875 0.7483933 -167.11128 3.8099963e-005 2.2432261 1.9999614e-005 164.68538 1.0527122 -36.716572
10955981250 0.74881423 -167.13123 1.9752701e-005 -121.3167 4.5062825e-005 -114.35934 1.0533805 -36.712906
10956015625 0.74926531 -167.06323 2.6918933e-005 85.616966 1.5250485e-005 -80.297913 1.0528247 -36.749275
10956050000 0.74966103 -167.06668 5.0300368e-005 -168.13516 1.1220215e-005 -123.34463 1.0522412 -36.726498
10956084375 0.74918926 -167.18015 3.1389427e-005 146.16356 2.2211165e-005 -57.981857 1.0526202 -36.746029
10956118750 0.74914998 -167.13382 2.2462682e-005 79.114784 2.0705367e-005 -68.096771 1.052928 -36.742596
10956153125 0.74874979 -167.13084 1.5662376e-005 -48.190865 1.1020398e-005 -52.509754 1.0534439 -36.774574
10956187500 0.74875683 -167.13828 1.3688367e-005 27.543295 9.5140003e-006 -36.96801 1.0540786 -36.742851
10956221875 0.74858528 -167.19566 2.0324254e-005 64.704323 2.7764707e-005 -21.960798 1.0533725 -36.746002
10956256250 0.7490375 -167.14584 2.0684314e-005 37.723274 2.1220781e-005 -90.574303 1.0521735 -36.708313
10956290625 0.74939328 -167.1566 1.845035e-005 -107.12303 1.3695776e-005 -115.08662 1.0542749 -36.619045
10956325000 0.74980259 -167.10423 2.6089991e-005 12.152872 8.469221e-006 62.127068 1.0546738 -36.727333
